Version:                        0x00030600
Trusted:                        0x00000001
Issue Date:                     0x12162015		; today's date
OEM UniqueID:                   0x4D52564C		; MRVL
Stepping:                       0x00000000
Processor Type:                 <undefined>		; ARMADALP
Boot Flash Signature:           0x5350490A		; Select SPI'0A
Number of Images:               1
Number of Keys:                 16			; CSK0-CSKF Keys. DSIG KAK key is not counted
Size of Reserved in bytes:      48

Image ID:                       0x54494D48		; TIMH
Next Image ID:                  0xFFFFFFFF		; No next
Flash Entry Address:            0x00000000		; TIM flash addr
Load Address:                   0x20006000		; TIM ISRAM addr
Image Size To Hash in bytes:    0xFFFFFFFF		; Hash complete image file
Hash Algorithm ID:              32			; SHA-256
Partition Number:               0x00000000
Encrypt Algorithm ID:           0x00000000
Encrypt Start Offset:           0x00000000
Encrypt Size:                   0x00000000
Image Filename: TIM_UBOOT_TRUSTED.bin

Key ID:                          0x43534B30		; CSK0
Hash Algorithm ID:               32
Key Size in bits:                2048
Public Key Size in bits:         2048
Encrypt Algorithm ID:            7
RSA Public Key Exponent:
0x00000003 0x00000000 0x00000000 0x00000000
0x00000000 0x00000000 0x00000000 0x00000000
0x00000000 0x00000000 0x00000000 0x00000000
0x00000000 0x00000000 0x00000000 0x00000000
0x00000000 0x00000000 0x00000000 0x00000000
0x00000000 0x00000000 0x00000000 0x00000000
0x00000000 0x00000000 0x00000000 0x00000000
0x00000000 0x00000000 0x00000000 0x00000000
0x00000000 0x00000000 0x00000000 0x00000000
0x00000000 0x00000000 0x00000000 0x00000000
0x00000000 0x00000000 0x00000000 0x00000000
0x00000000 0x00000000 0x00000000 0x00000000
0x00000000 0x00000000 0x00000000 0x00000000
0x00000000 0x00000000 0x00000000 0x00000000
0x00000000 0x00000000 0x00000000 0x00000000
0x00000000 0x00000000 0x00000000 0x00000000
RSA System Modulus:
0x84724B4D 0xF58CA3E8 0xD379F131 0x1ABFF997
0xC8D58E4C 0x5CA18F30 0xB739BA64 0x5938611F
0x8EE5D2B6 0x0EF040E8 0x153DB054 0x1A22F8BE
0xCBB9BCEF 0xC2793935 0xF133342F 0xA31B788C
0x44AEA9C7 0x0F255B5E 0xA8D0DBDB 0xC2CD9DC3
0x34DCC5A1 0xF5812DEF 0x58C2D51C 0x879562B1
0x1F2A5A8B 0x4884300D 0x51F9A7DF 0xB8229036
0xC73EA8B4 0xDDA0AF27 0x9CE80B9F 0x393B0C79
0x5630EA68 0x558D53AE 0xCCF630EF 0x72247090
0xBCB40C87 0x3DC04183 0x9FB8E19F 0x7BD96878
0x534168EA 0x20FA2569 0x135829A3 0x0A34F9BD
0x5994A70C 0x0D8E43E0 0xE352D564 0x411D3AA5
0x4F666B2A 0x5CCFFADA 0x0B14C219 0x82E9B28C
0x1AFDC5A8 0x2E699FCC 0x1D79E540 0x457CE2EB
0x4D56DACE 0xAA900176 0x366DAFDC 0x1F895984
0x4EBC5283 0x5668D9E4 0x889D174B 0x8BB67F04

Key ID:                          0x43534B31		; CSK1
Hash Algorithm ID:               32
Key Size in bits:                2048
Public Key Size in bits:         2048
Encrypt Algorithm ID:            7
RSA Public Key Exponent:
0x00000005 0x00000000 0x00000000 0x00000000
0x00000000 0x00000000 0x00000000 0x00000000
0x00000000 0x00000000 0x00000000 0x00000000
0x00000000 0x00000000 0x00000000 0x00000000
0x00000000 0x00000000 0x00000000 0x00000000
0x00000000 0x00000000 0x00000000 0x00000000
0x00000000 0x00000000 0x00000000 0x00000000
0x00000000 0x00000000 0x00000000 0x00000000
0x00000000 0x00000000 0x00000000 0x00000000
0x00000000 0x00000000 0x00000000 0x00000000
0x00000000 0x00000000 0x00000000 0x00000000
0x00000000 0x00000000 0x00000000 0x00000000
0x00000000 0x00000000 0x00000000 0x00000000
0x00000000 0x00000000 0x00000000 0x00000000
0x00000000 0x00000000 0x00000000 0x00000000
0x00000000 0x00000000 0x00000000 0x00000000
RSA System Modulus:
0x80EED371 0x0AB09B9B 0xA8BE98CD 0xB3246236
0x4518BCB8 0x497B8AE2 0xB7B5180C 0x71C9A948
0x458692E5 0x855AD78F 0x0F118A08 0xCBB5B7F0
0xB4A915FD 0xD213B4A4 0x6526A4AB 0x7A5765D1
0x147FA13D 0x544031DB 0xB9F08C82 0x2AA3B954
0x318DA699 0x2547A92C 0xEBB021A4 0x41B46DFB
0x420261F2 0x53C2E1E0 0xB396E865 0x21745D50
0xC85A7C8D 0x9B1953C0 0x06B64867 0xD2033737
0xAB830B2C 0xF091685F 0x8A8C7F6E 0x7AE0436E
0xC3FAFD35 0x34A1BC5B 0xBCCE1684 0x2A5B3168
0x378DBDF4 0x20B5DE97 0x2E11AD52 0xF43E6531
0x6608353F 0x4D11B545 0x7E9AEA03 0xD1299F13
0x995C3700 0xEBF5CEDF 0xABDC0164 0x50B8250B
0x387E5E50 0x62258E08 0x019F98D3 0xC530F7AB
0x9B120CAF 0x52335B28 0x3B8896A0 0xEB5C6D17
0xE67F80DB 0xD5A4B203 0x043872B6 0x9BD47764

Key ID:                          0x43534B32		; CSK2
Hash Algorithm ID:               32
Key Size in bits:                2048
Public Key Size in bits:         2048
Encrypt Algorithm ID:            7
RSA Public Key Exponent:
0x0000000B 0x00000000 0x00000000 0x00000000
0x00000000 0x00000000 0x00000000 0x00000000
0x00000000 0x00000000 0x00000000 0x00000000
0x00000000 0x00000000 0x00000000 0x00000000
0x00000000 0x00000000 0x00000000 0x00000000
0x00000000 0x00000000 0x00000000 0x00000000
0x00000000 0x00000000 0x00000000 0x00000000
0x00000000 0x00000000 0x00000000 0x00000000
0x00000000 0x00000000 0x00000000 0x00000000
0x00000000 0x00000000 0x00000000 0x00000000
0x00000000 0x00000000 0x00000000 0x00000000
0x00000000 0x00000000 0x00000000 0x00000000
0x00000000 0x00000000 0x00000000 0x00000000
0x00000000 0x00000000 0x00000000 0x00000000
0x00000000 0x00000000 0x00000000 0x00000000
0x00000000 0x00000000 0x00000000 0x00000000
RSA System Modulus:
0xA909FF45 0xA432D24A 0x1E9A2FE9 0x062A3CC5
0xC5286B43 0x5F599935 0x5342A93F 0x53BE93E6
0x978DBC01 0x29F90652 0xFEB50E31 0xA40EFB45
0x1FD4AC41 0x71C209AD 0x7DA7868D 0x224A835F
0x4E8B3F95 0xD4D60A04 0x58CFB7F2 0x8861C7D3
0x87704D6B 0x4824ABDB 0x92020A1D 0x8F08D3DF
0xC1A3A6F5 0xE200120C 0xBFEE8322 0xB79FF73E
0x8DEFFF8E 0x3B49DC35 0x4B7530BA 0xBE1DD02E
0x76743693 0x11FE0B29 0x98E82CD5 0x324A8FC6
0xDA1685C8 0x4E1F9224 0x75488EAB 0x35B0A53F
0xEDAD6DB0 0xB9ECF27E 0xB8ACDB84 0xBEEA13D5
0x1C160A24 0x6AC615F3 0xEC5BBC36 0x09F04D5E
0x4BEA748E 0x75A8BA08 0xA1C096CF 0x301FFB75
0xE2DE156F 0xFA694BE8 0x41EC3BC2 0xA52AEB45
0x0271D5B2 0xFBBF692B 0x4236E95D 0x0E105EA1
0x82E6A06C 0xEDE2FA67 0xAB731C64 0xD380DE78

Key ID:                          0x43534B33		; CSK3
Hash Algorithm ID:               32
Key Size in bits:                2048
Public Key Size in bits:         2048
Encrypt Algorithm ID:            7
RSA Public Key Exponent:
0x00000003 0x00000000 0x00000000 0x00000000
0x00000000 0x00000000 0x00000000 0x00000000
0x00000000 0x00000000 0x00000000 0x00000000
0x00000000 0x00000000 0x00000000 0x00000000
0x00000000 0x00000000 0x00000000 0x00000000
0x00000000 0x00000000 0x00000000 0x00000000
0x00000000 0x00000000 0x00000000 0x00000000
0x00000000 0x00000000 0x00000000 0x00000000
0x00000000 0x00000000 0x00000000 0x00000000
0x00000000 0x00000000 0x00000000 0x00000000
0x00000000 0x00000000 0x00000000 0x00000000
0x00000000 0x00000000 0x00000000 0x00000000
0x00000000 0x00000000 0x00000000 0x00000000
0x00000000 0x00000000 0x00000000 0x00000000
0x00000000 0x00000000 0x00000000 0x00000000
0x00000000 0x00000000 0x00000000 0x00000000
RSA System Modulus:
0xCC14894B 0x1D54EFAB 0x2C006ECC 0xECBA39B5
0x386B9504 0xE5127FA9 0xBBAF3A06 0xB351C24B
0x90A1B218 0xDB877D1E 0xFAAECD8C 0x2ABDC223
0x88AB687E 0x3BB63A7A 0xE2CECAA9 0x9F51C0D8
0xF55351ED 0x68C4C09E 0xF4FED718 0x111E24B9
0x8D938BEB 0x8ECF27F9 0xBBE7D8D5 0x1AC4F691
0xD54FBDB1 0x18A6D6BE 0x9619F30B 0x96461657
0xDF2961EC 0x3AE58790 0x88ECC5BD 0x181A4B15
0xED03EB8E 0xB365ED3E 0x7C95DCEA 0xE13FEF7A
0x046073C2 0xDF910B26 0x3F629BFD 0xDA8AD3F3
0xE3FBCFD8 0x49338817 0x8BBF17BD 0x02AAEAFA
0x4678A53E 0xB7D51770 0xBF853DCA 0x75487D2D
0xD57ECF69 0x9E444CF0 0x0B7B1D0D 0x38C1DEE9
0xEDC2BDB1 0xDF03CEA1 0xDDD31093 0x0317A73D
0x02EB8F74 0x5519D9F9 0xA3501FDE 0xC4BA749D
0xA82D50A6 0x0E42C2C6 0x0E56FC52 0xA533A925

Key ID:                          0x43534B34		; CSK4
Hash Algorithm ID:               32
Key Size in bits:                2048
Public Key Size in bits:         2048
Encrypt Algorithm ID:            7
RSA Public Key Exponent:
0x00000005 0x00000000 0x00000000 0x00000000
0x00000000 0x00000000 0x00000000 0x00000000
0x00000000 0x00000000 0x00000000 0x00000000
0x00000000 0x00000000 0x00000000 0x00000000
0x00000000 0x00000000 0x00000000 0x00000000
0x00000000 0x00000000 0x00000000 0x00000000
0x00000000 0x00000000 0x00000000 0x00000000
0x00000000 0x00000000 0x00000000 0x00000000
0x00000000 0x00000000 0x00000000 0x00000000
0x00000000 0x00000000 0x00000000 0x00000000
0x00000000 0x00000000 0x00000000 0x00000000
0x00000000 0x00000000 0x00000000 0x00000000
0x00000000 0x00000000 0x00000000 0x00000000
0x00000000 0x00000000 0x00000000 0x00000000
0x00000000 0x00000000 0x00000000 0x00000000
0x00000000 0x00000000 0x00000000 0x00000000
RSA System Modulus:
0x1CE759B9 0x4AFF4832 0x9CFA2713 0xCD988395
0xCE44E7B2 0x1BEDD8C1 0xFBB53605 0xA042C260
0x9BE6075A 0x02E3372E 0x3E1DAE9C 0xAB6C0387
0xFE6C24F8 0x7335FEE3 0xB43A2AC4 0xE7BB7C7D
0x388349C2 0xFD5671CE 0xA8364768 0x5DC26EE9
0x0B3DFDAE 0xD803592A 0x26AB97BF 0xE3EB4EBB
0x4CB562E4 0xAB5FB74E 0x3F200C72 0xE569DF3E
0xB310E40C 0xA7E87BCD 0xEE99B2F1 0xAE69FFF9
0xD47A88E7 0xB0EBEB19 0x21D613DA 0xF84E7A42
0x308C1F39 0x0A3C4E8D 0x83977B36 0xBE02DA3E
0xE36AF13A 0x098C57C5 0x5867DE7B 0x64FA0437
0xA5CD852B 0xEC154C71 0x5073B641 0x231BFCD4
0x05EEDE28 0xF64E1471 0x6EA07407 0x7D0430ED
0xD900FC06 0x288FC558 0xB2A95E0D 0x451A2DE7
0x5E51F306 0x3F3E6FA2 0x7338E97A 0xC4BAA7BB
0x0C4A7ED5 0x41842DCF 0x03E84F51 0x981B690A

Key ID:                          0x43534B35		; CSK5
Hash Algorithm ID:               32
Key Size in bits:                2048
Public Key Size in bits:         2048
Encrypt Algorithm ID:            7
RSA Public Key Exponent:
0x0000000B 0x00000000 0x00000000 0x00000000
0x00000000 0x00000000 0x00000000 0x00000000
0x00000000 0x00000000 0x00000000 0x00000000
0x00000000 0x00000000 0x00000000 0x00000000
0x00000000 0x00000000 0x00000000 0x00000000
0x00000000 0x00000000 0x00000000 0x00000000
0x00000000 0x00000000 0x00000000 0x00000000
0x00000000 0x00000000 0x00000000 0x00000000
0x00000000 0x00000000 0x00000000 0x00000000
0x00000000 0x00000000 0x00000000 0x00000000
0x00000000 0x00000000 0x00000000 0x00000000
0x00000000 0x00000000 0x00000000 0x00000000
0x00000000 0x00000000 0x00000000 0x00000000
0x00000000 0x00000000 0x00000000 0x00000000
0x00000000 0x00000000 0x00000000 0x00000000
0x00000000 0x00000000 0x00000000 0x00000000
RSA System Modulus:
0xB42F42BD 0x2D6BB77C 0x3DBBF682 0x97E79D79
0x112F41CD 0x1440BA6E 0x72B8CBA1 0x9F3AC71C
0xAFFB5B83 0xCF6CE01A 0xA451F1C4 0x840F8B39
0x47F5B6B4 0x52D24D6B 0xF940FCE5 0x938714CD
0xAE8ED49A 0x011C7F4D 0x20A0EAB3 0x854433C6
0xFD25B036 0x5F402E71 0x542B5679 0xCACC93CB
0x1DDB8ADC 0x426B1636 0x99944330 0xF8F9CEDF
0x013B1D84 0x9AB89FF3 0x025DC47D 0xF092EF75
0x8E61250C 0x6C07157B 0x60F43C83 0x29936A4E
0x6BF5A125 0x5B55EAEC 0x15828E0C 0x48E23DF3
0xFB41A5E8 0xC48C9CB4 0x217FDBEC 0x837D569B
0x859FEB98 0x249012F9 0xCC50C508 0xA6253F45
0x236BC1A8 0xA7B3062F 0x944A9B4E 0x82D973E2
0x7C0BC74E 0x38BCAEE8 0xF59EBEE0 0x64376CD6
0xB253A4D0 0xCFCF01A8 0x073FB688 0x27B3ED9B
0x94C016CC 0x0783D671 0x6FD68A39 0x8869DD7C

Key ID:                          0x43534B36		; CSK6
Hash Algorithm ID:               32
Key Size in bits:                2048
Public Key Size in bits:         2048
Encrypt Algorithm ID:            7
RSA Public Key Exponent:
0x00000003 0x00000000 0x00000000 0x00000000
0x00000000 0x00000000 0x00000000 0x00000000
0x00000000 0x00000000 0x00000000 0x00000000
0x00000000 0x00000000 0x00000000 0x00000000
0x00000000 0x00000000 0x00000000 0x00000000
0x00000000 0x00000000 0x00000000 0x00000000
0x00000000 0x00000000 0x00000000 0x00000000
0x00000000 0x00000000 0x00000000 0x00000000
0x00000000 0x00000000 0x00000000 0x00000000
0x00000000 0x00000000 0x00000000 0x00000000
0x00000000 0x00000000 0x00000000 0x00000000
0x00000000 0x00000000 0x00000000 0x00000000
0x00000000 0x00000000 0x00000000 0x00000000
0x00000000 0x00000000 0x00000000 0x00000000
0x00000000 0x00000000 0x00000000 0x00000000
0x00000000 0x00000000 0x00000000 0x00000000
RSA System Modulus:
0x3F236983 0xEBDB683B 0xDDA3648F 0x914B5800
0x31B22E27 0x174F42D6 0x9FCF6B74 0x702CECF7
0x64DF7FBA 0x402FDB7F 0x9F508CBD 0xA297B410
0x0BDA7224 0x8531ADDE 0x5B3B720A 0x888138ED
0xD12A0E97 0xFDA8AF45 0x4EC9073D 0xEBB56CEF
0xFD1CB219 0xDE792A64 0x8D2B323B 0x1853D025
0x789D2E0E 0x14546422 0x856E4789 0xF4858605
0x3EC6F74A 0x8E6E0FDA 0x591A6D47 0xAD05DC1A
0xA50D3F8D 0x8B98A196 0x08434948 0x767F9DE6
0x2D7A6D73 0xF7E5EED0 0x53A46A03 0x008457A2
0x4F086954 0xC98D0C87 0x37C60DD9 0x5A3AF863
0x8B535028 0xAF3FC78E 0x0AC0CB91 0x63BD1E08
0x0E9013FC 0xC86D4C3C 0xE0B434F5 0x448790F3
0x535EE091 0xD2C23186 0xEDAF39A9 0x16AF5681
0x46DB7772 0x5F7EC0E6 0x0A96AF66 0x432713A5
0xD813F959 0xB874402E 0x3A4A2145 0x86826C46

Key ID:                          0x43534B37		; CSK7
Hash Algorithm ID:               32
Key Size in bits:                2048
Public Key Size in bits:         2048
Encrypt Algorithm ID:            7
RSA Public Key Exponent:
0x00000005 0x00000000 0x00000000 0x00000000
0x00000000 0x00000000 0x00000000 0x00000000
0x00000000 0x00000000 0x00000000 0x00000000
0x00000000 0x00000000 0x00000000 0x00000000
0x00000000 0x00000000 0x00000000 0x00000000
0x00000000 0x00000000 0x00000000 0x00000000
0x00000000 0x00000000 0x00000000 0x00000000
0x00000000 0x00000000 0x00000000 0x00000000
0x00000000 0x00000000 0x00000000 0x00000000
0x00000000 0x00000000 0x00000000 0x00000000
0x00000000 0x00000000 0x00000000 0x00000000
0x00000000 0x00000000 0x00000000 0x00000000
0x00000000 0x00000000 0x00000000 0x00000000
0x00000000 0x00000000 0x00000000 0x00000000
0x00000000 0x00000000 0x00000000 0x00000000
0x00000000 0x00000000 0x00000000 0x00000000
RSA System Modulus:
0x8FA6AA23 0xCCF84CA4 0xFEB69002 0x996E098C
0xB909AE3D 0x2D9DF389 0x7FD369A3 0x7FF61B61
0x4D8E4730 0xEC43162D 0x2184D5F8 0xA05A0529
0xAECB5125 0x4E59A548 0xE9247D4C 0x0053218C
0x2F5084E0 0x8CD04BA5 0xACE14EE3 0xA24BA650
0x9492DE2F 0xE76E7164 0x58D84806 0xAB0DEC2E
0xAF39B139 0xB585F725 0xFF9B8A42 0x46F3F169
0xE22570CE 0x6681864E 0xF2713D5E 0x7FFFB5AC
0x8C2E22F7 0xB8BECCF8 0xB80AC29D 0xD8A61BD5
0x4B51BC1B 0xF5895F18 0x6E0C64C8 0x356CADDD
0x973136D7 0x0B523327 0x9252B3C7 0x537E92A1
0x79FC3EC6 0xD7A627D1 0xF6999E76 0xB8FEB250
0x40DD0A0E 0xF70AD291 0x6D6CE402 0xD3EDC239
0xA6BCB44D 0xDFDD1C0C 0x0FC00C2F 0x015FD8A4
0x441669BB 0xD63FA75F 0x6106EA2E 0xC5C433BC
0x34DE89D1 0xD7360B9E 0xCD3CC15A 0xBD689D5F

Key ID:                          0x43534B38		; CSK8
Hash Algorithm ID:               32
Key Size in bits:                2048
Public Key Size in bits:         2048
Encrypt Algorithm ID:            7
RSA Public Key Exponent:
0x00000005 0x00000000 0x00000000 0x00000000
0x00000000 0x00000000 0x00000000 0x00000000
0x00000000 0x00000000 0x00000000 0x00000000
0x00000000 0x00000000 0x00000000 0x00000000
0x00000000 0x00000000 0x00000000 0x00000000
0x00000000 0x00000000 0x00000000 0x00000000
0x00000000 0x00000000 0x00000000 0x00000000
0x00000000 0x00000000 0x00000000 0x00000000
0x00000000 0x00000000 0x00000000 0x00000000
0x00000000 0x00000000 0x00000000 0x00000000
0x00000000 0x00000000 0x00000000 0x00000000
0x00000000 0x00000000 0x00000000 0x00000000
0x00000000 0x00000000 0x00000000 0x00000000
0x00000000 0x00000000 0x00000000 0x00000000
0x00000000 0x00000000 0x00000000 0x00000000
0x00000000 0x00000000 0x00000000 0x00000000
RSA System Modulus:
0x6EB96073 0xD83975B3 0x6BB3FA48 0x77F435AB
0x1CB0C1DC 0x7B9C076D 0x704A7D7B 0x1DBF8D59
0x200DB680 0x420439A8 0x33F7BBBC 0x2CB397DB
0x08FA9EBB 0x2EA446DB 0x46AAA79D 0x5B527159
0xFA9CC944 0x8CE39B34 0x6E80DF9F 0x4DCA4310
0x3CC2DD75 0x262A2F72 0xAB74CB32 0xE1153DD3
0xEE966E87 0x09DBD071 0x0156F389 0x7EDB7DD4
0xFBA01311 0xD1805968 0xCBE3BFF7 0x7ADFAD6E
0x77CBCCEA 0x7C89F4F8 0x82259AFA 0xEE472314
0xEFB72065 0xC32E1049 0x43EEE9F6 0x372E5004
0x4613B37C 0x3B09569A 0x5588FBDE 0x93979FEA
0x70485A1D 0x2BC862FC 0x0A970E72 0x33409DE5
0x4B6C97AC 0x88204426 0x2EDB395F 0x9C689899
0x64126A7F 0xAC9A4CF7 0x126A2041 0x404AB206
0x64B85FD9 0xA7BD445A 0x12CA7C28 0x4955918E
0x40B8BF7D 0x45CB59F2 0xE5A8A467 0x9F94C876

Key ID:                          0x43534B39		; CSK9
Hash Algorithm ID:               32
Key Size in bits:                2048
Public Key Size in bits:         2048
Encrypt Algorithm ID:            7
RSA Public Key Exponent:
0x00000005 0x00000000 0x00000000 0x00000000
0x00000000 0x00000000 0x00000000 0x00000000
0x00000000 0x00000000 0x00000000 0x00000000
0x00000000 0x00000000 0x00000000 0x00000000
0x00000000 0x00000000 0x00000000 0x00000000
0x00000000 0x00000000 0x00000000 0x00000000
0x00000000 0x00000000 0x00000000 0x00000000
0x00000000 0x00000000 0x00000000 0x00000000
0x00000000 0x00000000 0x00000000 0x00000000
0x00000000 0x00000000 0x00000000 0x00000000
0x00000000 0x00000000 0x00000000 0x00000000
0x00000000 0x00000000 0x00000000 0x00000000
0x00000000 0x00000000 0x00000000 0x00000000
0x00000000 0x00000000 0x00000000 0x00000000
0x00000000 0x00000000 0x00000000 0x00000000
0x00000000 0x00000000 0x00000000 0x00000000
RSA System Modulus:
0x1A391637 0xF3981418 0x50F8BA85 0xE6765B83
0x8E69891F 0x8DB23893 0xEE0FCA94 0x7ED0D5B0
0xA491F91A 0x9B5E8196 0xD9344934 0xEBE12AD5
0x81D1C27E 0xB20BA288 0x04963930 0x0E7A293B
0xE7D56DCB 0x8F65E162 0xF6BBDEE0 0x86AEA562
0x3D08C23C 0x768EA975 0x377D71CC 0x17B9BC0B
0x6AB327C3 0x407B7862 0x24FF1095 0xFDB888D9
0xC422FB8B 0xB87FDE7C 0x05D83774 0x1AA1ACB6
0xAAA7B491 0xF054D003 0xAB637711 0x1FD7D1BE
0xE9966138 0x077024D3 0xE4E8BBE8 0x2E962E07
0xECF5A346 0xF39676A2 0xE702A229 0xDBF8B6F5
0xDDDD3D6F 0x7A5154D7 0xE040D453 0xCC0F85C9
0x34FA581F 0x95D4B82D 0x6A797D75 0xE1553B71
0xD47EA44C 0xCE7D12DE 0x734843F3 0x05F18F09
0xC4CC8D7E 0xD4D0B8A8 0xE48867A4 0x061A328A
0x939A6DF2 0x8D715E49 0x8F89220D 0xE8B41609

Key ID:                          0x43534B41		; CSKA
Hash Algorithm ID:               32
Key Size in bits:                2048
Public Key Size in bits:         2048
Encrypt Algorithm ID:            7
RSA Public Key Exponent:
0x00000007 0x00000000 0x00000000 0x00000000
0x00000000 0x00000000 0x00000000 0x00000000
0x00000000 0x00000000 0x00000000 0x00000000
0x00000000 0x00000000 0x00000000 0x00000000
0x00000000 0x00000000 0x00000000 0x00000000
0x00000000 0x00000000 0x00000000 0x00000000
0x00000000 0x00000000 0x00000000 0x00000000
0x00000000 0x00000000 0x00000000 0x00000000
0x00000000 0x00000000 0x00000000 0x00000000
0x00000000 0x00000000 0x00000000 0x00000000
0x00000000 0x00000000 0x00000000 0x00000000
0x00000000 0x00000000 0x00000000 0x00000000
0x00000000 0x00000000 0x00000000 0x00000000
0x00000000 0x00000000 0x00000000 0x00000000
0x00000000 0x00000000 0x00000000 0x00000000
0x00000000 0x00000000 0x00000000 0x00000000
RSA System Modulus:
0x11E8C5D7 0xA7284A13 0x3C4F173C 0xF4674A70
0x49EDC183 0xBBF0CA6F 0x851479C3 0x3D241D58
0x02DFF511 0x77A29190 0xB69846C0 0x62E1C683
0x558312B9 0xD2085079 0xFEA9829D 0xEB8E2947
0xE92D664C 0xC9404EE4 0xDF0231BE 0x61C1426B
0x91D7FCC2 0x9466DA99 0xF9E5EBD1 0xD362C8A7
0x0A3008C5 0x845CB45F 0x8DB7018E 0x9BCA46DF
0x4B276169 0x2FAF3BD7 0x0C57D378 0xCD0E6AFE
0x7A16FFF3 0xBB37863A 0x814485D4 0xE8EF0571
0x003A9A95 0x619A7480 0xB3E64B5C 0xFEF5F3AA
0x5DC284FF 0xDA21A3F9 0xE32AB325 0x9E4E41AC
0xEB47DB7D 0x0D064650 0xC0F1DC47 0x324A9164
0x7A85B4B0 0x911DF41D 0xD2DDEF25 0xBA99F9EC
0x502321EC 0x2910C2B2 0x95C024A8 0x1CF3BF20
0xE53D9716 0x054A7676 0xD1AAF3E2 0xF21F50F4
0x0DE0D6BB 0x40958F61 0xAD65B5E7 0x8FA580E8

Key ID:                          0x43534B42		; CSKB
Hash Algorithm ID:               32
Key Size in bits:                2048
Public Key Size in bits:         2048
Encrypt Algorithm ID:            7
RSA Public Key Exponent:
0x00000003 0x00000000 0x00000000 0x00000000
0x00000000 0x00000000 0x00000000 0x00000000
0x00000000 0x00000000 0x00000000 0x00000000
0x00000000 0x00000000 0x00000000 0x00000000
0x00000000 0x00000000 0x00000000 0x00000000
0x00000000 0x00000000 0x00000000 0x00000000
0x00000000 0x00000000 0x00000000 0x00000000
0x00000000 0x00000000 0x00000000 0x00000000
0x00000000 0x00000000 0x00000000 0x00000000
0x00000000 0x00000000 0x00000000 0x00000000
0x00000000 0x00000000 0x00000000 0x00000000
0x00000000 0x00000000 0x00000000 0x00000000
0x00000000 0x00000000 0x00000000 0x00000000
0x00000000 0x00000000 0x00000000 0x00000000
0x00000000 0x00000000 0x00000000 0x00000000
0x00000000 0x00000000 0x00000000 0x00000000
RSA System Modulus:
0x36C618D9 0xAFE3EE38 0x8AF837F2 0xC887F13B
0xA745AFF5 0x748BBBDF 0xD785352D 0x62A4757D
0x81D121A2 0xD50B3AAE 0xE16500FC 0x18648DEA
0x50DF958C 0xD9FA1B5A 0xFA37B037 0xD9197A35
0xB97A003F 0xF3A402CA 0x8BFAF70E 0xA2406B13
0xB9371AC4 0x8E0F3AB3 0x4896D404 0x0B238BFE
0x6EFEBAA8 0x96F010F8 0xC6D34E79 0xF6DE9A49
0xB312164F 0xC8119D13 0x0B84C5B6 0x93277CED
0xD5F9A12D 0xCB3B59CE 0x5322D16C 0xA29D250B
0x83320C87 0x5542A966 0x035FAC5B 0x5BF5C92F
0x5E99AB5B 0xD8CDEAC2 0x34595E36 0x9289FA67
0xBA8D7E72 0x24E07DDC 0x0F977301 0xFFF8161F
0x107EF118 0x0621738D 0x185284BA 0xEBB0DE71
0x1A2367A2 0xEE984D0C 0x6533B577 0xACF96802
0x498C19AF 0xAFA2144E 0x48902B73 0x95FA2FBF
0x50FAC022 0x6E1B0056 0x27F6D1F8 0x8EF6FA84

Key ID:                          0x43534B43		; CSKC
Hash Algorithm ID:               32
Key Size in bits:                2048
Public Key Size in bits:         2048
Encrypt Algorithm ID:            7
RSA Public Key Exponent:
0x00000003 0x00000000 0x00000000 0x00000000
0x00000000 0x00000000 0x00000000 0x00000000
0x00000000 0x00000000 0x00000000 0x00000000
0x00000000 0x00000000 0x00000000 0x00000000
0x00000000 0x00000000 0x00000000 0x00000000
0x00000000 0x00000000 0x00000000 0x00000000
0x00000000 0x00000000 0x00000000 0x00000000
0x00000000 0x00000000 0x00000000 0x00000000
0x00000000 0x00000000 0x00000000 0x00000000
0x00000000 0x00000000 0x00000000 0x00000000
0x00000000 0x00000000 0x00000000 0x00000000
0x00000000 0x00000000 0x00000000 0x00000000
0x00000000 0x00000000 0x00000000 0x00000000
0x00000000 0x00000000 0x00000000 0x00000000
0x00000000 0x00000000 0x00000000 0x00000000
0x00000000 0x00000000 0x00000000 0x00000000
RSA System Modulus:
0x8F2CCDA1 0xF0763D8D 0x289797F6 0x52A50EB7
0xBE0B7819 0xB16DB7D9 0x2E41F5AC 0x0DAA1585
0x1E0CF747 0x8CB020D0 0x93A82B06 0x6EAE42A7
0x63BF0E85 0x4151686D 0x7BA4D30D 0xE6C11356
0x5A19BBDA 0xB989FA3F 0x76AA5532 0x12C8CDB4
0x8F789E57 0xA239EE27 0xDAADBE2C 0x5B53D1D0
0xECED3963 0xBA17B643 0xF7EFC874 0xC4C54C13
0xD76A5EB9 0x64DD76BF 0x5F73A653 0x3ED4AA3B
0xE67990C3 0x51207475 0xD261F849 0xE9200580
0x6C28C989 0x7EECBDD6 0xC0080FB2 0x895F54A7
0x26C1E5C1 0x88DA7340 0xA455B55B 0x6A07B30D
0xB8187B14 0x9FBCA233 0xEBC045E4 0xC2976B5F
0xCEDE2508 0x0D9657C5 0x6AE2C65A 0x7C5BAFCE
0x1C7B5F3B 0xDC266B86 0x4569593A 0x6EE56793
0x6CBD166E 0x596D7B05 0xB7E89B0E 0x4137FE40
0xE1A6D41B 0x1EEBC811 0x51713716 0xA88C811D

Key ID:                          0x43534B44		; CSKD
Hash Algorithm ID:               32
Key Size in bits:                2048
Public Key Size in bits:         2048
Encrypt Algorithm ID:            7
RSA Public Key Exponent:
0x00000005 0x00000000 0x00000000 0x00000000
0x00000000 0x00000000 0x00000000 0x00000000
0x00000000 0x00000000 0x00000000 0x00000000
0x00000000 0x00000000 0x00000000 0x00000000
0x00000000 0x00000000 0x00000000 0x00000000
0x00000000 0x00000000 0x00000000 0x00000000
0x00000000 0x00000000 0x00000000 0x00000000
0x00000000 0x00000000 0x00000000 0x00000000
0x00000000 0x00000000 0x00000000 0x00000000
0x00000000 0x00000000 0x00000000 0x00000000
0x00000000 0x00000000 0x00000000 0x00000000
0x00000000 0x00000000 0x00000000 0x00000000
0x00000000 0x00000000 0x00000000 0x00000000
0x00000000 0x00000000 0x00000000 0x00000000
0x00000000 0x00000000 0x00000000 0x00000000
0x00000000 0x00000000 0x00000000 0x00000000
RSA System Modulus:
0x6EB085A9 0x8488C1C8 0xA81FFD8D 0x9DC499D6
0xC34C208D 0xCFAA69C1 0x202C0461 0x4E45F6B1
0x8F844929 0x309E290D 0x5BC24AF3 0x960C80C1
0xFDF83333 0x720486A8 0x80AD6193 0xC7D201AC
0xCA08C74A 0x38B1E1C7 0xEAD311E7 0x91E97BCD
0x2C085CC2 0x57C4FC83 0x6C666299 0x666EF86C
0x5E80A8EE 0x90F3BB25 0x6277151C 0x9098AB63
0x127B43E5 0xB6208EEC 0x0B895168 0xC65788D6
0x4067BD6C 0xCD10D4B3 0xA689BA69 0x3D5C3F86
0xB9E7694E 0x568672CB 0x4EF93A0F 0x73471E5C
0x121CBB41 0x26775A98 0x33D278EE 0xA92202EE
0x6EB4788C 0x8B92D176 0xB6A79E04 0x655C272A
0xE09264D2 0xEB7575CF 0x66272B8C 0x4452A007
0xDA070D6A 0x0912A1D6 0x7AC1D664 0x636AA549
0x9CB5D1B6 0x47EAE2B0 0x80ECD81C 0xA29C3099
0x034C3C2A 0xAAEC7AD9 0xD5750A6A 0xB339BB8B

Key ID:                          0x43534B45		; CSKE
Hash Algorithm ID:               32
Key Size in bits:                2048
Public Key Size in bits:         2048
Encrypt Algorithm ID:            7
RSA Public Key Exponent:
0x00000003 0x00000000 0x00000000 0x00000000
0x00000000 0x00000000 0x00000000 0x00000000
0x00000000 0x00000000 0x00000000 0x00000000
0x00000000 0x00000000 0x00000000 0x00000000
0x00000000 0x00000000 0x00000000 0x00000000
0x00000000 0x00000000 0x00000000 0x00000000
0x00000000 0x00000000 0x00000000 0x00000000
0x00000000 0x00000000 0x00000000 0x00000000
0x00000000 0x00000000 0x00000000 0x00000000
0x00000000 0x00000000 0x00000000 0x00000000
0x00000000 0x00000000 0x00000000 0x00000000
0x00000000 0x00000000 0x00000000 0x00000000
0x00000000 0x00000000 0x00000000 0x00000000
0x00000000 0x00000000 0x00000000 0x00000000
0x00000000 0x00000000 0x00000000 0x00000000
0x00000000 0x00000000 0x00000000 0x00000000
RSA System Modulus:
0x1B9BA633 0x20E1A628 0xF590848D 0x61EEE18A
0x818E9C11 0xDB41F99E 0x60C41E9A 0x0D3F2F12
0x25CFF022 0x40D6F206 0xBD956736 0x0CE10AF5
0x9644161D 0x4E311CED 0xC759D55C 0xF6067A34
0x14409A8E 0x172FB96C 0xE4DF02F1 0x9A823EA9
0xAE011A2C 0xB0193083 0x569C00B8 0x947AEC1E
0x1CC0A4EB 0x4EF3D0CA 0x8B618734 0xEA825D95
0x01E741B8 0xD819A62F 0xD69C38CA 0xEC0CFD96
0x4714DDEC 0xECD1BA71 0xDD1534FB 0x12400336
0xB820B99C 0x5E483F3A 0xB691E5DD 0x3A65E34F
0x8068C6D7 0x6C67F719 0x9734CB95 0x3B69268C
0x69028406 0xC782F8D9 0xF344CC56 0xFD4696F2
0xF3D4B293 0x50C07A75 0x419DCC90 0x7EDF9C9B
0xDA146BF2 0x13BA7DA5 0x5B1ABC21 0xF60EC64F
0xECC0D7ED 0xB09192C6 0xDCF4ABA5 0xC34DE401
0x9AC70C66 0xCD16209E 0x5F2C6F9F 0xB0C05D75

Key ID:                          0x43534B46		; CSKF
Hash Algorithm ID:               32
Key Size in bits:                2048
Public Key Size in bits:         2048
Encrypt Algorithm ID:            7
RSA Public Key Exponent:
0x00000007 0x00000000 0x00000000 0x00000000
0x00000000 0x00000000 0x00000000 0x00000000
0x00000000 0x00000000 0x00000000 0x00000000
0x00000000 0x00000000 0x00000000 0x00000000
0x00000000 0x00000000 0x00000000 0x00000000
0x00000000 0x00000000 0x00000000 0x00000000
0x00000000 0x00000000 0x00000000 0x00000000
0x00000000 0x00000000 0x00000000 0x00000000
0x00000000 0x00000000 0x00000000 0x00000000
0x00000000 0x00000000 0x00000000 0x00000000
0x00000000 0x00000000 0x00000000 0x00000000
0x00000000 0x00000000 0x00000000 0x00000000
0x00000000 0x00000000 0x00000000 0x00000000
0x00000000 0x00000000 0x00000000 0x00000000
0x00000000 0x00000000 0x00000000 0x00000000
0x00000000 0x00000000 0x00000000 0x00000000
RSA System Modulus:
0x8BAAF09B 0x9F054D65 0xD96E8251 0xD6A54983
0xE298F2A7 0xC3A61186 0x1569AF1C 0xCF08DF01
0xDA22D992 0x464A7549 0xA0743F28 0x21F21FDB
0x62883E78 0xF273C89E 0x398BA51A 0xA29A01CB
0x1D1DF0BB 0x55D8CEEF 0xDD2F3725 0xAF498E7D
0x1757D055 0xEF607138 0x8F576E6D 0x3986C646
0x0D001EB0 0xD2E72201 0x24A7CEC7 0xBA1B007D
0xF0377102 0xB913E5F2 0xA485BE45 0xB9EB9F8D
0x316D5671 0xA8E01324 0x5B4EA32C 0x576D3154
0xB6DB746D 0x25B9473C 0xEC73B697 0x1663B961
0x942F4E3E 0x8F18117B 0xC37B494C 0xC1F94666
0x822AAFFE 0x3C5456AE 0xB3691FA5 0x7299BB72
0xE1FBD6A6 0x24C49D7F 0x36BB9FE6 0x0BE04D0F
0x4D24A7ED 0x7F0E149F 0x015F6836 0xFCD94761
0x70CEC997 0xCA69DC43 0x0ECF7082 0x067CB240
0x5163D25E 0x506BB33B 0x632BCC5F 0xA56F6AE8

Reserved Data:
0x4F505448	; OPTH reserved package
0x00000002	; Number of reserved packages
0x494D4150	; Image Map (IMAP) Package
0x00000020	; Size of this package
0x00000001	; Number of image map
0x43534B54	; ImageID: CSKT
0x00000000	; Primary:0, Recovery:1
0x00004000	; Flash Entry Address
0x00000000	; Reserved
0x00000000	; Partition # in the flash
0x5465726D	; Terminate package
0x00000008	; Size of this package

Extended Reserved Data:
Consumer ID:
CID: TBRI
PID: DDR3
End Consumer ID:
DDR Initialization:
DDR_PID: DDR3
Operations:
DDR_INIT_ENABLE: 0x00000001
End Operations:
Instructions:
WRITE: 0xC0014008 0x00404500
WRITE: 0xC0002000 0x00010000
WRITE: 0xC0002004 0x00000000
WRITE: 0xC0000340 0x0f0f0fef
WRITE: 0xC0000344 0x100000aa
WRITE: 0xC0000310 0x200000
WRITE: 0xC0000304 0x0
WRITE: 0xC0000308 0x0
WRITE: 0xC0000200 0xe0001
WRITE: 0xC0000204 0x0
WRITE: 0xC0000220 0x13020532
WRITE: 0xC0000044 0x30200
WRITE: 0xC00002c0 0x6000
WRITE: 0xC00002c4 0x00100020
WRITE: 0xC0000058 0x143f
WRITE: 0xC0000048 0x1
WRITE: 0xC0000180 0x00010200
WRITE: 0xC0000050 0x1ff
WRITE: 0xC000004c 0x0
WRITE: 0xC0000054 0x480
WRITE: 0xC0000300 0x708
WRITE: 0xC0000380 0x1f5
WRITE: 0xC0000384 0x3e9
WRITE: 0xC0000388 0x9600043
WRITE: 0xC000038c 0x200
WRITE: 0xC0000390 0x400100
WRITE: 0xC0000394 0x6b03cf
WRITE: 0xC0000398 0x720200
WRITE: 0xC000039c 0x120707
WRITE: 0xC00003a0 0x40511
WRITE: 0xC00003a4 0x1
WRITE: 0xC00003a8 0xc04
WRITE: 0xC00003ac 0x15210919
WRITE: 0xC00003b0 0x90b0609
WRITE: 0xC00003b4 0x4000600
WRITE: 0xC00003b8 0x600
WRITE: 0xC00003bc 0x2020404
WRITE: 0xC00003c0 0x0
WRITE: 0xC00003c4 0x0
WRITE: 0xC00003dc 0x81239
WRITE: 0xC00002c8 0x0
WRITE: 0xC0000064 0x0006
WRITE: 0xC0001004 0x10077779
WRITE: 0xC0001008 0x1ff00770
WRITE: 0xC000100c 0x3f03fc77
WRITE: 0xC0001010 0x100118
WRITE: 0xC0001028 0x0
WRITE: 0xC0001030 0x3800000
WRITE: 0xC0001034 0x0
WRITE: 0xC0001040 0x400
WRITE: 0xC00010c0 0x80000001
WRITE: 0xC00010d0 0x0
WRITE: 0xC00010e0 0x11ff0
WRITE: 0xC0001090 0x0
WRITE: 0xC0001094 0x0
WRITE: 0xC0001098 0x0
WRITE: 0xC000109c 0x0
WRITE: 0xC00010a0 0x0
WRITE: 0xC00010a4 0x0
WRITE: 0xC00010a8 0x0
WRITE: 0xC00010ac 0x0
WRITE: 0xC00010b0 0x0
WRITE: 0xC0001000 0x44041
WRITE: 0xC0001014 0x80200
WRITE: 0xC0001038 0x2
WRITE: 0xC000103c 0x10
WRITE: 0xC0001180 0x20a
WRITE: 0xC0001184 0x20a
WRITE: 0xC0001188 0x20a
WRITE: 0xC000118c 0x20a
WRITE: 0xC0001190 0x20a
WRITE: 0xC0001194 0x20a
WRITE: 0xC0001198 0x20a
WRITE: 0xC000119c 0x20a
WRITE: 0xC00011a0 0x20a
WRITE: 0xC0001050 0x8080000
WRITE: 0xC0001054 0x8080000
WRITE: 0xC0001058 0x8080000
WRITE: 0xC000105c 0x8080000
WRITE: 0xC0001060 0x8080000
WRITE: 0xC0001064 0x8080000
WRITE: 0xC0001068 0x8080000
WRITE: 0xC000106c 0x8080000
WRITE: 0xC0001070 0x8080000
WRITE: 0xC0001020 0x20000000
WRITE: 0xC0001020 0x40000000
WRITE: 0xC0001020 0x80000000
WRITE: 0xC0000020 0x11000001
WAIT_FOR_BIT_SET: 0xC0000008 0x00000001 0x00001000
; AVS enable
WRITE: 0xC0011500 0x98A2FFFF	;# Set VDD to 1150mV and soft reset AVS
WRITE: 0xC0011500 0x18A2FFFF	;# release AVS reset
WRITE: 0xC0011500 0x58A2FFFF	;# Enable AVS
End Instructions:
End DDR Initialization:
End Extended Reserved Data:

DSA Algorithm ID:                7			; Signed with KAK
Hash Algorithm ID:               32
Key Size in bits:                2048
RSA Public Exponent:
0x00000005 0x00000000 0x00000000 0x00000000
0x00000000 0x00000000 0x00000000 0x00000000
0x00000000 0x00000000 0x00000000 0x00000000
0x00000000 0x00000000 0x00000000 0x00000000
0x00000000 0x00000000 0x00000000 0x00000000
0x00000000 0x00000000 0x00000000 0x00000000
0x00000000 0x00000000 0x00000000 0x00000000
0x00000000 0x00000000 0x00000000 0x00000000
0x00000000 0x00000000 0x00000000 0x00000000
0x00000000 0x00000000 0x00000000 0x00000000
0x00000000 0x00000000 0x00000000 0x00000000
0x00000000 0x00000000 0x00000000 0x00000000
0x00000000 0x00000000 0x00000000 0x00000000
0x00000000 0x00000000 0x00000000 0x00000000
0x00000000 0x00000000 0x00000000 0x00000000
0x00000000 0x00000000 0x00000000 0x00000000
RSA System Modulus:
0x77F56E6F 0xF5DB0AD4 0xEB994D35 0xA863FE85
0x747D27ED 0x9EE303BA 0xFB55D06C 0x8DBAEF04
0x9AC8F88F 0x8867FA62 0x8DFA5127 0x286D8EA5
0x27FF8E37 0x70352983 0x8C91B233 0xF405C5D9
0xA6A5C82C 0x837A1F87 0xBA48B0C1 0x93F53C48
0x28D7FC8A 0xF9C7ADA9 0x670C502A 0x1FC12DA2
0x71731332 0x0EB4C539 0x302C6048 0xF509D000
0x76652F8E 0x934F1993 0x1FA1B34E 0xD16CB85A
0x158676A5 0xE7C149B0 0xC205E905 0x7E93ABD2
0x8EED7C51 0xCBB4B5DB 0x46B79B5D 0xFE93923A
0x19880137 0xA3B4AD2E 0x0F1052D8 0xA603C887
0x574BB1E8 0xE9BCA9D7 0xB895700B 0x56D44368
0x8A98798E 0xFB40038D 0xB6486D0F 0x5328EC7D
0x888616A8 0xBCD39C2C 0x90274217 0x0D902683
0x2E195296 0x661D62BC 0x278042A2 0x30ECAD89
0x6A2541EF 0xA94696C9 0x21482342 0x8B5E9CE9
RSA Private Key:
0xD4AFB845 0x882291D2 0x0AEE53EB 0xF1A487FB
0xD4C8B4A3 0x62FF05F1 0x316CB1CE 0x88C4E130
0xA0DFD69F 0xBBB22559 0xB8EE1753 0xB61D13D3
0xB2A0B791 0x83EFABDF 0x28E75756 0x6DFBF10E
0xC4022294 0x403D1E65 0x977AE60F 0xF1286EF7
0x77881617 0xCD439140 0x805117C3 0x8CA829F3
0x29BBC428 0x170A0A39 0xD10CD562 0x0B156871
0xDB551DE2 0xFFE0D58E 0xE7FEDD0E 0x77037604
0x044E17BA 0x94C041F0 0x26CDFB67 0x4C83EF2A
0x82FC4C10 0xF58A8AC5 0xA7BE5245 0xCC83EA0B
0x384E66A4 0xED8A8909 0x030343C4 0x5467281B
0x117589FB 0x2EBF552B 0xF1B77CCF 0x115DA714
0x821E7EB6 0xCBD99A4F 0x2474E29C 0x43D4FC19
0x4E8137BB 0x8C2A526F 0x1CD4A6D1 0xCF833AE7
0x3C6B76EA 0xE13913BF 0xD4B34086 0x09C8EF81
0xAED44063 0xBB74848E 0x6D0E6D73 0x1BDFB8FB
